
T1E1F8 120:735 SEGGER J-Link V6.48a Log File (0049ms, 0064ms total)
T1E1F8 120:735 DLL Compiled: Jul 30 2019 15:16:09 (0049ms, 0064ms total)
T1E1F8 120:735 Logging started @ 2019-12-11 12:24 (0049ms, 0064ms total)
T1E1F8 120:784 JLINK_SetWarnOutHandler(...) (0001ms, 0065ms total)
T1E1F8 120:785 JLINK_OpenEx(...)
Firmware: J-Link ARM V8 compiled Nov 28 2014 13:44:46
Hardware: V8.00
S/N: 788594195
Feature(s): RDI,FlashDL,FlashBP,JFlash,GDB
TELNET listener socket opened on port 19021WEBSRV 
Starting webserver (0091ms, 0156ms total)
T1E1F8 120:785 WEBSRV Webserver running on local port 19080 (0091ms, 0156ms total)
T1E1F8 120:785   returns O.K. (0091ms, 0156ms total)
T1E1F8 120:876 JLINK_GetEmuCaps()  returns 0xB9FF7BBF (0000ms, 0156ms total)
T1E1F8 120:877 JLINK_TIF_GetAvailable(...) (0000ms, 0156ms total)
T1E1F8 120:878 JLINK_SetErrorOutHandler(...) (0000ms, 0157ms total)
T1E1F8 120:878 JLINK_ExecCommand("ProjectFile = "E:\智能车\智能车\smart car_2\Projecct\MDK\JLinkSettings.ini"", ...). Ref file found at: D:\keil\ARM\Segger\JLinkDevices.ref (0041ms, 0198ms total)
T1E1F8 120:878 XML referenced by ref file: C:\Program Files (x86)\SEGGER\JLink\JLinkDevices.xml (0057ms, 0214ms total)
T1E1F8 120:878 C:\Program Files (x86)\SEGGER\JLink\JLinkDevices.xml evaluated successfully.  returns 0x00 (0233ms, 0390ms total)
T1E1F8 121:119 JLINK_ExecCommand("Device = SKEAZ128xxx4", ...). Device "SKEAZ128XXX4" selected.  returns 0x00 (0011ms, 0401ms total)
T1E1F8 121:130 JLINK_ExecCommand("DisableConnectionTimeout", ...).   returns 0x01 (0000ms, 0402ms total)
T1E1F8 121:131 JLINK_GetHardwareVersion()  returns 0x13880 (0000ms, 0402ms total)
T1E1F8 121:131 JLINK_GetDLLVersion()  returns 64801 (0000ms, 0402ms total)
T1E1F8 121:131 JLINK_GetFirmwareString(...) (0000ms, 0402ms total)
T1E1F8 121:152 JLINK_GetDLLVersion()  returns 64801 (0000ms, 0402ms total)
T1E1F8 121:152 JLINK_GetCompileDateTime() (0000ms, 0402ms total)
T1E1F8 121:160 JLINK_GetFirmwareString(...) (0000ms, 0402ms total)
T1E1F8 121:168 JLINK_GetHardwareVersion()  returns 0x13880 (0000ms, 0402ms total)
T1E1F8 121:200 JLINK_TIF_Select(JLINKARM_TIF_SWD)  returns 0x00 (0002ms, 0404ms total)
T1E1F8 121:202 JLINK_SetSpeed(5000) (0001ms, 0405ms total)
T1E1F8 121:203 JLINK_GetId()InitTarget() >0x10B TIF> >0x0D TIF> >0x28 TIF> >0x0D TIF> >0x28 TIF> >0x0D TIF> >0x28 TIF> >0x0D TIF> >0x28 TIF> >0x0D TIF> >0x21 TIF> >0x0D TIF> >0x28 TIF> >0x0D TIF> >0x21 TIF> >0x0D TIF> >0x21 TIF> >0x0D TIF> >0x21 TIF> >0x0D TIF> >0x21 TIF> >0x0D TIF> >0x21 TIF> >0x0D TIF> >0x21 TIF> >0x0D TIF> >0x21 TIF> >0x0D TIF> >0x21 TIF> >0x0D TIF> >0x21 TIF> >0x0D TIF> >0x21 TIF> >0x0D TIF> >0x21 TIF> >0x0D TIF> >0x21 TIF> >0x0D TIF> >0x21 TIF> >0x0D TIF> >0x21 TIF> >0x0D TIF>
 >0x21 TIF> >0x0D TIF> >0x21 TIF> >0x0D TIF> >0x21 TIF> >0x0D TIF> >0x21 TIF> >0x0D TIF> >0x21 TIF> >0x0D TIF> >0x21 TIF> >0x0D TIF> >0x21 TIF> >0x0D TIF> >0x21 TIF> >0x0D TIF> >0x21 TIF> >0x0D TIF> >0x21 TIF> >0x0D TIF> >0x21 TIF> >0x0D TIF> >0x21 TIF> >0x0D TIF> >0x21 TIF> >0x0D TIF> >0x21 TIF> >0x0D TIF> >0x21 TIF> >0x0D TIF> >0x21 TIF> >0x0D TIF> >0x21 TIF> >0x0D TIF> >0x21 TIF> >0x0D TIF> >0x21 TIF> >0x0D TIF> >0x21 TIF> >0x0D TIF> >0x21 TIF> >0x0D TIF> >0x21 TIF> >0x0D TIF> >0x21 TIF> >0x0D TIF>
 >0x21 TIF> >0x0D TIF> >0x21 TIF> >0x0D TIF> >0x21 TIF> >0x0D TIF> >0x21 TIF> >0x0D TIF> >0x21 TIF> >0x0D TIF> >0x21 TIF> >0x0D TIF> >0x21 TIF> >0x0D TIF> >0x21 TIF> >0x0D TIF> >0x21 TIF> >0x0D TIF> >0x21 TIF> >0x0D TIF> >0x21 TIF> >0x0D TIF> >0x21 TIF> >0x0D TIF> >0x21 TIF> >0x0D TIF> >0x21 TIF> >0x0D TIF> >0x21 TIF> >0x0D TIF> >0x21 TIF> >0x0D TIF> >0x21 TIF> >0x0D TIF> >0x21 TIF> >0x0D TIF> >0x21 TIF> >0x0D TIF> >0x21 TIF> >0x0D TIF> >0x21 TIF> >0x0D TIF> >0x21 TIF> >0x0D TIF> >0x21 TIF> >0x0D TIF>
 >0x21 TIF> >0x0D TIF> >0x21 TIF> >0x0D TIF> >0x21 TIF> >0x0D TIF> >0x21 TIF> >0x0D TIF> >0x21 TIF> >0x0D TIF> >0x21 TIF> >0x0D TIF> >0x21 TIF> >0x0D TIF> >0x21 TIF> >0x0D TIF> >0x21 TIF> >0x0D TIF> >0x21 TIF> >0x0D TIF> >0x21 TIF> >0x0D TIF> >0x21 TIF> >0x0D TIF> >0x21 TIF> >0x0D TIF> >0x21 TIF> >0x0D TIF> >0x21 TIF> >0x0D TIF> >0x21 TIF> >0x0D TIF> >0x21 TIF> >0x0D TIF> >0x21 TIF> >0x0D TIF> >0x21 TIF> >0x0D TIF> >0x21 TIF> >0x0D TIF> >0x21 TIF> >0x0D TIF> >0x21 TIF> >0x0D TIF> >0x21 TIF> >0x0D TIF>
 >0x21 TIF> >0x0D TIF> >0x21 TIF> >0x0D TIF> >0x21 TIF> >0x0D TIF> >0x21 TIF> >0x0D TIF> >0x21 TIF> >0x0D TIF> >0x21 TIF> >0x0D TIF> >0x21 TIF> >0x0D TIF> >0x21 TIF> >0x0D TIF> >0x21 TIF> >0x0D TIF> >0x21 TIF> >0x0D TIF> >0x21 TIF> >0x0D TIF> >0x28 TIF> >0x0D TIF> >0x28 TIF> >0x0D TIF> >0x28 TIF> >0x0D TIF> >0x21 TIF> >0x0D TIF> >0x21 TIF> >0x10B TIF>Found SW-DP with ID 0x0BC11477 >0x0D TIF> >0x28 TIF> >0x0D TIF> >0x28 TIF> >0x0D TIF> >0x28 TIF> >0x0D TIF> >0x28 TIF> >0x0D TIF> >0x21 TIF> >0x0D TIF>
 >0x28 TIF>Scanning AP map to find all available APs >0x0D TIF> >0x28 TIF> >0x0D TIF> >0x21 TIF> >0x0D TIF> >0x21 TIF> >0x0D TIF> >0x28 TIF> >0x0D TIF> >0x21 TIF> >0x0D TIF> >0x21 TIF> >0x0D TIF> >0x28 TIF> >0x0D TIF> >0x21 TIF> >0x0D TIF> >0x21 TIF>AP[2]: Stopped AP scan as end of AP map has been reachedAP[0]: AHB-AP (IDR: 0x04770031)AP[1]: JTAG-AP (IDR: 0x001C0020)Iterating through AP map to find AHB-AP to use >0x42 TIF> >0x28 TIF> >0x0D TIF> >0x28 TIF> >0x0D TIF> >0x21 TIF> >0x0D TIF> >0x21 TIF>
 >0x42 TIF> >0x28 TIF> >0x0D TIF> >0x28 TIF> >0x0D TIF> >0x28 TIF> >0x0D TIF> >0x21 TIF> >0x0D TIF> >0x21 TIF>AP[0]: Core foundAP[0]: AHB-AP ROM base: 0xF0002000 >0x0D TIF> >0x28 TIF> >0x0D TIF> >0x28 TIF> >0x0D TIF> >0x28 TIF> >0x0D TIF> >0x21 TIF> >0x0D TIF> >0x21 TIF>CPUID register: 0x410CC600. Implementer code: 0x41 (ARM)Found Cortex-M0 r0p0, Little endian. -- Max. mem block: 0x00002408 -- CPU_ReadMem(4 bytes @ 0xE000EDF0) -- CPU_WriteMem(4 bytes @ 0xE000EDF0) -- CPU_ReadMem(4 bytes @ 0xE0002000)
FPUnit: 2 code (BP) slots and 0 literal slots -- CPU_ReadMem(4 bytes @ 0xE000EDFC) -- CPU_WriteMem(4 bytes @ 0xE000EDFC) -- CPU_ReadMem(4 bytes @ 0xE0001000) -- CPU_WriteMem(4 bytes @ 0xE0001000)CoreSight components:ROMTbl[0] @ F0002000 -- CPU_ReadMem(16 bytes @ 0xF0002000) -- CPU_ReadMem(16 bytes @ 0xE00FFFF0) -- CPU_ReadMem(16 bytes @ 0xE00FFFE0)ROMTbl[0][0]: E00FF000, CID: B105100D, PID: 000BB4C0 ROM TableROMTbl[1] @ E00FF000 -- CPU_ReadMem(16 bytes @ 0xE00FF000) -- CPU_ReadMem(16 bytes @ 0xE000EFF0)
 -- CPU_ReadMem(16 bytes @ 0xE000EFE0)ROMTbl[1][0]: E000E000, CID: B105E00D, PID: 000BB008 SCS -- CPU_ReadMem(16 bytes @ 0xE0001FF0) -- CPU_ReadMem(16 bytes @ 0xE0001FE0)ROMTbl[1][1]: E0001000, CID: B105E00D, PID: 000BB00A DWT -- CPU_ReadMem(16 bytes @ 0xE0002FF0) -- CPU_ReadMem(16 bytes @ 0xE0002FE0)ROMTbl[1][2]: E0002000, CID: B105E00D, PID: 000BB00B FPBExecuting SetupTarget() -- CPU_ReadMem(4 bytes @ 0x40048004) >0x0D TIF> >0x21 TIF>  returns 0x0BC11477 (0322ms, 0727ms total)
T1E1F8 121:525 JLINK_GetDLLVersion()  returns 64801 (0000ms, 0727ms total)
T1E1F8 121:525 JLINK_CORE_GetFound()  returns 0x60000FF (0000ms, 0727ms total)
T1E1F8 121:525 JLINK_GetDebugInfo(0x100 = JLINKARM_ROM_TABLE_ADDR_INDEX) -- Value=0xF0002000  returns 0x00 (0000ms, 0727ms total)
T1E1F8 121:531 JLINK_GetDebugInfo(0x100 = JLINKARM_ROM_TABLE_ADDR_INDEX) -- Value=0xF0002000  returns 0x00 (0000ms, 0727ms total)
T1E1F8 121:531 JLINK_GetDebugInfo(0x101 = JLINKARM_DEBUG_INFO_ETM_ADDR_INDEX) -- Value=0x00000000  returns 0x00 (0000ms, 0727ms total)
T1E1F8 121:531 JLINK_ReadMemEx(0xE0041FF0, 0x0010 Bytes, ..., Flags = 0x02000004) -- CPU_ReadMem(16 bytes @ 0xE0041FF0) - Data: 00 00 00 00 00 00 00 00 00 00 00 00 00 00 00 00  returns 0x10 (0001ms, 0728ms total)
T1E1F8 121:532 JLINK_GetDebugInfo(0x102 = JLINKARM_DEBUG_INFO_MTB_ADDR_INDEX) -- Value=0x00000000  returns 0x00 (0000ms, 0728ms total)
T1E1F8 121:532 JLINK_GetDebugInfo(0x103 = JLINKARM_DEBUG_INFO_TPIU_ADDR_INDEX) -- Value=0x00000000  returns 0x00 (0000ms, 0728ms total)
T1E1F8 121:532 JLINK_ReadMemEx(0xE0040FF0, 0x0010 Bytes, ..., Flags = 0x02000004) -- CPU_ReadMem(16 bytes @ 0xE0040FF0) - Data: 00 00 00 00 00 00 00 00 00 00 00 00 00 00 00 00  returns 0x10 (0000ms, 0728ms total)
T1E1F8 121:532 JLINK_GetDebugInfo(0x104 = JLINKARM_DEBUG_INFO_ITM_ADDR_INDEX) -- Value=0xE0000000  returns 0x00 (0000ms, 0728ms total)
T1E1F8 121:532 JLINK_GetDebugInfo(0x105 = JLINKARM_DEBUG_INFO_DWT_ADDR_INDEX) -- Value=0xE0001000  returns 0x00 (0000ms, 0728ms total)
T1E1F8 121:532 JLINK_GetDebugInfo(0x106 = JLINKARM_DEBUG_INFO_FPB_ADDR_INDEX) -- Value=0xE0002000  returns 0x00 (0000ms, 0728ms total)
T1E1F8 121:532 JLINK_GetDebugInfo(0x107 = JLINKARM_DEBUG_INFO_NVIC_ADDR_INDEX) -- Value=0xE000E000  returns 0x00 (0000ms, 0728ms total)
T1E1F8 121:532 JLINK_GetDebugInfo(0x10C = JLINKARM_DEBUG_INFO_DBG_ADDR_INDEX) -- Value=0xE000EDF0  returns 0x00 (0000ms, 0728ms total)
T1E1F8 121:532 JLINK_GetDebugInfo(0x01 = Unknown) -- Value=0x00000000  returns 0x00 (0000ms, 0728ms total)
T1E1F8 121:532 JLINK_ReadMemU32(0xE000ED00, 0x0001 Items, ...) -- CPU_ReadMem(4 bytes @ 0xE000ED00) - Data: 00 C6 0C 41  returns 1 (0001ms, 0729ms total)
T1E1F8 121:533 JLINK_GetDebugInfo(0x10F = JLINKARM_DEBUG_INFO_HAS_CORTEX_M_SECURITY_EXT_INDEX) -- Value=0x00000000  returns 0x00 (0000ms, 0729ms total)
T1E1F8 121:533 JLINK_SetResetType(JLINKARM_CM3_RESET_TYPE_NORMAL)  returns JLINKARM_CM3_RESET_TYPE_NORMAL (0000ms, 0729ms total)
T1E1F8 121:533 JLINK_Reset() -- CPU is running -- CPU_WriteMem(4 bytes @ 0xE000EDF0) -- CPU is running -- CPU_WriteMem(4 bytes @ 0xE000EDFC)Reset: Halt core after reset via DEMCR.VC_CORERESET. >0x35 TIF>Reset: Reset device via AIRCR.SYSRESETREQ. -- CPU is running -- CPU_WriteMem(4 bytes @ 0xE000ED0C) >0x0D TIF> >0x28 TIF> -- CPU_ReadMem(4 bytes @ 0xE000EDF0) -- CPU_ReadMem(4 bytes @ 0xE000EDF0) -- CPU is running -- CPU_WriteMem(4 bytes @ 0xE000EDF0) -- CPU is running -- CPU_WriteMem(4 bytes @ 0xE000EDFC)
 -- CPU_ReadMem(4 bytes @ 0xE000EDF0)AfterResetTarget() -- CPU_ReadMem(4 bytes @ 0x40048004)Disable watchdog() >0x0D TIF> >0x28 TIF> >0x0D TIF> >0x28 TIF> >0x0D TIF> >0x28 TIF> >0x0D TIF> >0x28 TIF> >0x0D TIF> >0x28 TIF> >0x0D TIF> >0x21 TIF> >0x0D TIF> >0x21 TIF> >0x0D TIF> >0x28 TIF> >0x0D TIF> >0x28 TIF> >0x0D TIF> >0x21 TIF> >0x0D TIF> >0x21 TIF>Disable watchdog(): Watchdog enabled --> Disable it >0x0D TIF> >0x28 TIF> >0x0D TIF> >0x28 TIF> >0x0D TIF> >0x28 TIF> >0x0D TIF> >0x28 TIF> >0x0D TIF>
 >0x28 TIF> >0x0D TIF> >0x28 TIF> >0x0D TIF> >0x28 TIF> >0x0D TIF> >0x28 TIF> >0x0D TIF> >0x28 TIF> >0x0D TIF> >0x28 TIF> >0x0D TIF> >0x28 TIF> >0x0D TIF> >0x28 TIF> >0x0D TIF> >0x28 TIF> -- CPU_WriteMem(4 bytes @ 0xE0002000) -- CPU_ReadMem(4 bytes @ 0xE000EDFC) -- CPU_ReadMem(4 bytes @ 0xE0001000) -- CPU_WriteMem(4 bytes @ 0xE0001000) (0119ms, 0848ms total)
T1E1F8 121:652 JLINK_Halt()  returns 0x00 (0000ms, 0848ms total)
T1E1F8 121:652 JLINK_ReadMemU32(0xE000EDF0, 0x0001 Items, ...) -- CPU_ReadMem(4 bytes @ 0xE000EDF0) - Data: 03 00 03 00  returns 1 (0001ms, 0849ms total)
T1E1F8 121:653 JLINK_WriteU32(0xE000EDF0, 0xA05F0003) -- CPU_WriteMem(4 bytes @ 0xE000EDF0)  returns 0 (0000ms, 0849ms total)
T1E1F8 121:653 JLINK_WriteU32(0xE000EDFC, 0x01000000) -- CPU_WriteMem(4 bytes @ 0xE000EDFC)  returns 0 (0001ms, 0850ms total)
T1E1F8 121:676 JLINK_GetHWStatus(...)  returns 0x00 (0000ms, 0850ms total)
T1E1F8 121:696 JLINK_GetNumBPUnits(Type = 0xFFFFFF00)  returns 0x02 (0000ms, 0850ms total)
T1E1F8 121:696 JLINK_GetNumBPUnits(Type = 0xF0)  returns 0x2000 (0000ms, 0850ms total)
T1E1F8 121:696 JLINK_GetNumWPUnits()  returns 0x02 (0000ms, 0850ms total)
T1E1F8 121:713 JLINK_GetSpeed()  returns 0xFA0 (0000ms, 0850ms total)
T1E1F8 121:724 JLINK_ReadMemU32(0xE000E004, 0x0001 Items, ...) -- CPU_ReadMem(4 bytes @ 0xE000E004) - Data: 00 00 00 00  returns 1 (0001ms, 0851ms total)
T1E1F8 121:725 JLINK_Halt()  returns 0x00 (0000ms, 0851ms total)
T1E1F8 121:725 JLINK_IsHalted()  returns TRUE (0000ms, 0851ms total)
T1E1F8 121:741 JLINK_WriteMem(0x1FFFF000, 0x01AC Bytes, ...) - Data: 00 BE 0A E0 0D 78 2D 06 68 40 08 24 40 00 00 D3 ... -- CPU_WriteMem(428 bytes @ 0x1FFFF000)  returns 0x1AC (0004ms, 0855ms total)
T1E1F8 121:745 JLINK_WriteReg(R0, 0x00000000)  returns 0x00 (0000ms, 0855ms total)
T1E1F8 121:745 JLINK_WriteReg(R1, 0x00F42400)  returns 0x00 (0000ms, 0855ms total)
T1E1F8 121:745 JLINK_WriteReg(R2, 0x00000001)  returns 0x00 (0000ms, 0855ms total)
T1E1F8 121:745 JLINK_WriteReg(R3, 0x00000000)  returns 0x00 (0000ms, 0855ms total)
T1E1F8 121:745 JLINK_WriteReg(R4, 0x00000000)  returns 0x00 (0000ms, 0855ms total)
T1E1F8 121:745 JLINK_WriteReg(R5, 0x00000000)  returns 0x00 (0000ms, 0855ms total)
T1E1F8 121:745 JLINK_WriteReg(R6, 0x00000000)  returns 0x00 (0000ms, 0855ms total)
T1E1F8 121:745 JLINK_WriteReg(R7, 0x00000000)  returns 0x00 (0000ms, 0855ms total)
T1E1F8 121:745 JLINK_WriteReg(R8, 0x00000000)  returns 0x00 (0000ms, 0855ms total)
T1E1F8 121:745 JLINK_WriteReg(R9, 0x1FFFF1A8)  returns 0x00 (0000ms, 0855ms total)
T1E1F8 121:745 JLINK_WriteReg(R10, 0x00000000)  returns 0x00 (0000ms, 0855ms total)
T1E1F8 121:745 JLINK_WriteReg(R11, 0x00000000)  returns 0x00 (0000ms, 0855ms total)
T1E1F8 121:745 JLINK_WriteReg(R12, 0x00000000)  returns 0x00 (0000ms, 0855ms total)
T1E1F8 121:745 JLINK_WriteReg(R13 (SP), 0x20000000)  returns 0x00 (0000ms, 0855ms total)
T1E1F8 121:745 JLINK_WriteReg(R14, 0x1FFFF001)  returns 0x00 (0000ms, 0855ms total)
T1E1F8 121:745 JLINK_WriteReg(R15 (PC), 0x1FFFF038)  returns 0x00 (0000ms, 0855ms total)
T1E1F8 121:745 JLINK_WriteReg(XPSR, 0x01000000)  returns 0x00 (0000ms, 0855ms total)
T1E1F8 121:745 JLINK_WriteReg(MSP, 0x20000000)  returns 0x00 (0000ms, 0855ms total)
T1E1F8 121:746 JLINK_WriteReg(PSP, 0x20000000)  returns 0x00 (0000ms, 0855ms total)
T1E1F8 121:746 JLINK_WriteReg(CFBP, 0x00000000)  returns 0x00 (0000ms, 0855ms total)
T1E1F8 121:746 JLINK_SetBPEx(Addr = 0x1FFFF000, Type = 0xFFFFFFF2)  returns 0x00000001 (0000ms, 0855ms total)
T1E1F8 121:746 JLINK_Go() -- CPU_WriteMem(4 bytes @ 0xE0002000) -- CPU_ReadMem(4 bytes @ 0xE0001000) -- CPU_WriteMem(4 bytes @ 0xE0001000) -- CPU_WriteMem(4 bytes @ 0xE0002008) -- CPU_WriteMem(4 bytes @ 0xE000200C) -- CPU_WriteMem(4 bytes @ 0xE0001004) (0004ms, 0859ms total)
T1E1F8 121:750 JLINK_IsHalted()  returns TRUE (0003ms, 0862ms total)
T1E1F8 121:753 JLINK_ReadReg(R15 (PC))  returns 0x1FFFF000 (0000ms, 0859ms total)
T1E1F8 121:753 JLINK_ClrBPEx(BPHandle = 0x00000001)  returns 0x00 (0000ms, 0859ms total)
T1E1F8 121:753 JLINK_ReadReg(R0)  returns 0x00000000 (0000ms, 0859ms total)
T1E1F8 121:755 JLINK_WriteReg(R0, 0x00000000)  returns 0x00 (0000ms, 0859ms total)
T1E1F8 121:755 JLINK_WriteReg(R1, 0x00000200)  returns 0x00 (0000ms, 0859ms total)
T1E1F8 121:755 JLINK_WriteReg(R2, 0x000000FF)  returns 0x00 (0000ms, 0859ms total)
T1E1F8 121:755 JLINK_WriteReg(R3, 0x00000000)  returns 0x00 (0000ms, 0859ms total)
T1E1F8 121:755 JLINK_WriteReg(R4, 0x00000000)  returns 0x00 (0000ms, 0859ms total)
T1E1F8 121:755 JLINK_WriteReg(R5, 0x00000000)  returns 0x00 (0000ms, 0859ms total)
T1E1F8 121:755 JLINK_WriteReg(R6, 0x00000000)  returns 0x00 (0000ms, 0859ms total)
T1E1F8 121:755 JLINK_WriteReg(R7, 0x00000000)  returns 0x00 (0000ms, 0859ms total)
T1E1F8 121:755 JLINK_WriteReg(R8, 0x00000000)  returns 0x00 (0000ms, 0859ms total)
T1E1F8 121:755 JLINK_WriteReg(R9, 0x1FFFF1A8)  returns 0x00 (0000ms, 0859ms total)
T1E1F8 121:755 JLINK_WriteReg(R10, 0x00000000)  returns 0x00 (0000ms, 0859ms total)
T1E1F8 121:755 JLINK_WriteReg(R11, 0x00000000)  returns 0x00 (0000ms, 0859ms total)
T1E1F8 121:755 JLINK_WriteReg(R12, 0x00000000)  returns 0x00 (0000ms, 0859ms total)
T1E1F8 121:755 JLINK_WriteReg(R13 (SP), 0x20000000)  returns 0x00 (0000ms, 0859ms total)
T1E1F8 121:755 JLINK_WriteReg(R14, 0x1FFFF001)  returns 0x00 (0000ms, 0859ms total)
T1E1F8 121:755 JLINK_WriteReg(R15 (PC), 0x1FFFF020)  returns 0x00 (0000ms, 0859ms total)
T1E1F8 121:755 JLINK_WriteReg(XPSR, 0x01000000)  returns 0x00 (0000ms, 0859ms total)
T1E1F8 121:755 JLINK_WriteReg(MSP, 0x20000000)  returns 0x00 (0000ms, 0859ms total)
T1E1F8 121:756 JLINK_WriteReg(PSP, 0x20000000)  returns 0x00 (0000ms, 0860ms total)
T1E1F8 121:756 JLINK_WriteReg(CFBP, 0x00000000)  returns 0x00 (0000ms, 0860ms total)
T1E1F8 121:756 JLINK_SetBPEx(Addr = 0x1FFFF000, Type = 0xFFFFFFF2)  returns 0x00000002 (0000ms, 0860ms total)
T1E1F8 121:756 JLINK_Go() -- CPU_WriteMem(4 bytes @ 0xE0002000) -- CPU_ReadMem(4 bytes @ 0xE0001000) -- CPU_WriteMem(4 bytes @ 0xE0001000) (0003ms, 0863ms total)
T1E1F8 121:759 JLINK_IsHalted()  returns TRUE (0002ms, 0865ms total)
T1E1F8 121:761 JLINK_ReadReg(R15 (PC))  returns 0x1FFFF000 (0000ms, 0863ms total)
T1E1F8 121:761 JLINK_ClrBPEx(BPHandle = 0x00000002)  returns 0x00 (0001ms, 0864ms total)
T1E1F8 121:762 JLINK_ReadReg(R0)  returns 0x00000001 (0000ms, 0864ms total)
T1E1F8 121:762 JLINK_WriteReg(R0, 0x00000000)  returns 0x00 (0000ms, 0864ms total)
T1E1F8 121:762 JLINK_WriteReg(R1, 0x00000200)  returns 0x00 (0000ms, 0864ms total)
T1E1F8 121:762 JLINK_WriteReg(R2, 0x000000FF)  returns 0x00 (0000ms, 0864ms total)
T1E1F8 121:762 JLINK_WriteReg(R3, 0x00000000)  returns 0x00 (0000ms, 0864ms total)
T1E1F8 121:762 JLINK_WriteReg(R4, 0x00000000)  returns 0x00 (0000ms, 0864ms total)
T1E1F8 121:762 JLINK_WriteReg(R5, 0x00000000)  returns 0x00 (0000ms, 0864ms total)
T1E1F8 121:762 JLINK_WriteReg(R6, 0x00000000)  returns 0x00 (0000ms, 0864ms total)
T1E1F8 121:762 JLINK_WriteReg(R7, 0x00000000)  returns 0x00 (0000ms, 0864ms total)
T1E1F8 121:762 JLINK_WriteReg(R8, 0x00000000)  returns 0x00 (0000ms, 0864ms total)
T1E1F8 121:762 JLINK_WriteReg(R9, 0x1FFFF1A8)  returns 0x00 (0000ms, 0864ms total)
T1E1F8 121:762 JLINK_WriteReg(R10, 0x00000000)  returns 0x00 (0000ms, 0864ms total)
T1E1F8 121:762 JLINK_WriteReg(R11, 0x00000000)  returns 0x00 (0000ms, 0864ms total)
T1E1F8 121:762 JLINK_WriteReg(R12, 0x00000000)  returns 0x00 (0000ms, 0864ms total)
T1E1F8 121:762 JLINK_WriteReg(R13 (SP), 0x20000000)  returns 0x00 (0000ms, 0864ms total)
T1E1F8 121:762 JLINK_WriteReg(R14, 0x1FFFF001)  returns 0x00 (0000ms, 0864ms total)
T1E1F8 121:762 JLINK_WriteReg(R15 (PC), 0x1FFFF0DA)  returns 0x00 (0000ms, 0864ms total)
T1E1F8 121:762 JLINK_WriteReg(XPSR, 0x01000000)  returns 0x00 (0000ms, 0864ms total)
T1E1F8 121:762 JLINK_WriteReg(MSP, 0x20000000)  returns 0x00 (0000ms, 0864ms total)
T1E1F8 121:762 JLINK_WriteReg(PSP, 0x20000000)  returns 0x00 (0000ms, 0864ms total)
T1E1F8 121:762 JLINK_WriteReg(CFBP, 0x00000000)  returns 0x00 (0000ms, 0864ms total)
T1E1F8 121:762 JLINK_SetBPEx(Addr = 0x1FFFF000, Type = 0xFFFFFFF2)  returns 0x00000003 (0000ms, 0864ms total)
T1E1F8 121:762 JLINK_Go() -- CPU_WriteMem(4 bytes @ 0xE0002000) -- CPU_ReadMem(4 bytes @ 0xE0001000) -- CPU_WriteMem(4 bytes @ 0xE0001000) (0004ms, 0868ms total)
T1E1F8 121:766 JLINK_IsHalted()  returns FALSE (0000ms, 0868ms total)
T1E1F8 121:832 JLINK_IsHalted()  returns TRUE (0002ms, 0870ms total)
T1E1F8 121:834 JLINK_ReadReg(R15 (PC))  returns 0x1FFFF000 (0000ms, 0868ms total)
T1E1F8 121:834 JLINK_ClrBPEx(BPHandle = 0x00000003)  returns 0x00 (0000ms, 0868ms total)
T1E1F8 121:834 JLINK_ReadReg(R0)  returns 0x00000000 (0000ms, 0868ms total)
T1E1F8 121:835 JLINK_WriteReg(R0, 0x00000200)  returns 0x00 (0000ms, 0868ms total)
T1E1F8 121:835 JLINK_WriteReg(R1, 0x00000200)  returns 0x00 (0000ms, 0868ms total)
T1E1F8 121:835 JLINK_WriteReg(R2, 0x000000FF)  returns 0x00 (0000ms, 0868ms total)
T1E1F8 121:835 JLINK_WriteReg(R3, 0x00000000)  returns 0x00 (0000ms, 0868ms total)
T1E1F8 121:835 JLINK_WriteReg(R4, 0x00000000)  returns 0x00 (0000ms, 0868ms total)
T1E1F8 121:835 JLINK_WriteReg(R5, 0x00000000)  returns 0x00 (0000ms, 0868ms total)
T1E1F8 121:835 JLINK_WriteReg(R6, 0x00000000)  returns 0x00 (0000ms, 0868ms total)
T1E1F8 121:835 JLINK_WriteReg(R7, 0x00000000)  returns 0x00 (0001ms, 0869ms total)
T1E1F8 121:836 JLINK_WriteReg(R8, 0x00000000)  returns 0x00 (0000ms, 0869ms total)
T1E1F8 121:836 JLINK_WriteReg(R9, 0x1FFFF1A8)  returns 0x00 (0000ms, 0869ms total)
T1E1F8 121:836 JLINK_WriteReg(R10, 0x00000000)  returns 0x00 (0000ms, 0869ms total)
T1E1F8 121:836 JLINK_WriteReg(R11, 0x00000000)  returns 0x00 (0000ms, 0869ms total)
T1E1F8 121:836 JLINK_WriteReg(R12, 0x00000000)  returns 0x00 (0000ms, 0869ms total)
T1E1F8 121:836 JLINK_WriteReg(R13 (SP), 0x20000000)  returns 0x00 (0000ms, 0869ms total)
T1E1F8 121:836 JLINK_WriteReg(R14, 0x1FFFF001)  returns 0x00 (0000ms, 0869ms total)
T1E1F8 121:836 JLINK_WriteReg(R15 (PC), 0x1FFFF020)  returns 0x00 (0000ms, 0869ms total)
T1E1F8 121:836 JLINK_WriteReg(XPSR, 0x01000000)  returns 0x00 (0000ms, 0869ms total)
T1E1F8 121:836 JLINK_WriteReg(MSP, 0x20000000)  returns 0x00 (0000ms, 0869ms total)
T1E1F8 121:836 JLINK_WriteReg(PSP, 0x20000000)  returns 0x00 (0000ms, 0869ms total)
T1E1F8 121:836 JLINK_WriteReg(CFBP, 0x00000000)  returns 0x00 (0000ms, 0869ms total)
T1E1F8 121:836 JLINK_SetBPEx(Addr = 0x1FFFF000, Type = 0xFFFFFFF2)  returns 0x00000004 (0000ms, 0869ms total)
T1E1F8 121:836 JLINK_Go() -- CPU_WriteMem(4 bytes @ 0xE0002000) -- CPU_ReadMem(4 bytes @ 0xE0001000) -- CPU_WriteMem(4 bytes @ 0xE0001000) (0004ms, 0873ms total)
T1E1F8 121:840 JLINK_IsHalted()  returns TRUE (0002ms, 0875ms total)
T1E1F8 121:842 JLINK_ReadReg(R15 (PC))  returns 0x1FFFF000 (0000ms, 0873ms total)
T1E1F8 121:842 JLINK_ClrBPEx(BPHandle = 0x00000004)  returns 0x00 (0000ms, 0873ms total)
T1E1F8 121:842 JLINK_ReadReg(R0)  returns 0x00000001 (0000ms, 0873ms total)
T1E1F8 121:842 JLINK_WriteReg(R0, 0x00000200)  returns 0x00 (0000ms, 0873ms total)
T1E1F8 121:842 JLINK_WriteReg(R1, 0x00000200)  returns 0x00 (0000ms, 0873ms total)
T1E1F8 121:842 JLINK_WriteReg(R2, 0x000000FF)  returns 0x00 (0000ms, 0873ms total)
T1E1F8 121:842 JLINK_WriteReg(R3, 0x00000000)  returns 0x00 (0000ms, 0873ms total)
T1E1F8 121:842 JLINK_WriteReg(R4, 0x00000000)  returns 0x00 (0000ms, 0873ms total)
T1E1F8 121:842 JLINK_WriteReg(R5, 0x00000000)  returns 0x00 (0000ms, 0873ms total)
T1E1F8 121:842 JLINK_WriteReg(R6, 0x00000000)  returns 0x00 (0000ms, 0873ms total)
T1E1F8 121:842 JLINK_WriteReg(R7, 0x00000000)  returns 0x00 (0000ms, 0873ms total)
T1E1F8 121:842 JLINK_WriteReg(R8, 0x00000000)  returns 0x00 (0000ms, 0873ms total)
T1E1F8 121:842 JLINK_WriteReg(R9, 0x1FFFF1A8)  returns 0x00 (0000ms, 0873ms total)
T1E1F8 121:842 JLINK_WriteReg(R10, 0x00000000)  returns 0x00 (0000ms, 0873ms total)
T1E1F8 121:842 JLINK_WriteReg(R11, 0x00000000)  returns 0x00 (0000ms, 0873ms total)
T1E1F8 121:842 JLINK_WriteReg(R12, 0x00000000)  returns 0x00 (0000ms, 0873ms total)
T1E1F8 121:842 JLINK_WriteReg(R13 (SP), 0x20000000)  returns 0x00 (0000ms, 0873ms total)
T1E1F8 121:842 JLINK_WriteReg(R14, 0x1FFFF001)  returns 0x00 (0000ms, 0873ms total)
T1E1F8 121:842 JLINK_WriteReg(R15 (PC), 0x1FFFF0DA)  returns 0x00 (0000ms, 0873ms total)
T1E1F8 121:842 JLINK_WriteReg(XPSR, 0x01000000)  returns 0x00 (0000ms, 0873ms total)
T1E1F8 121:842 JLINK_WriteReg(MSP, 0x20000000)  returns 0x00 (0001ms, 0874ms total)
T1E1F8 121:843 JLINK_WriteReg(PSP, 0x20000000)  returns 0x00 (0000ms, 0874ms total)
T1E1F8 121:843 JLINK_WriteReg(CFBP, 0x00000000)  returns 0x00 (0000ms, 0874ms total)
T1E1F8 121:843 JLINK_SetBPEx(Addr = 0x1FFFF000, Type = 0xFFFFFFF2)  returns 0x00000005 (0000ms, 0874ms total)
T1E1F8 121:843 JLINK_Go() -- CPU_WriteMem(4 bytes @ 0xE0002000) -- CPU_ReadMem(4 bytes @ 0xE0001000) -- CPU_WriteMem(4 bytes @ 0xE0001000) (0003ms, 0877ms total)
T1E1F8 121:846 JLINK_IsHalted()  returns FALSE (0001ms, 0878ms total)
T1E1F8 121:849 JLINK_IsHalted()  returns FALSE (0000ms, 0877ms total)
T1E1F8 121:853 JLINK_IsHalted()  returns FALSE (0000ms, 0877ms total)
T1E1F8 121:855 JLINK_IsHalted()  returns FALSE (0000ms, 0877ms total)
T1E1F8 121:857 JLINK_IsHalted()  returns FALSE (0000ms, 0877ms total)
T1E1F8 121:859 JLINK_IsHalted()  returns FALSE (0000ms, 0877ms total)
T1E1F8 121:861 JLINK_IsHalted()  returns FALSE (0000ms, 0877ms total)
T1E1F8 121:865 JLINK_IsHalted()  returns FALSE (0000ms, 0877ms total)
T1E1F8 121:867 JLINK_IsHalted()  returns FALSE (0000ms, 0877ms total)
T1E1F8 121:869 JLINK_IsHalted()  returns FALSE (0000ms, 0877ms total)
T1E1F8 121:871 JLINK_IsHalted()  returns FALSE (0000ms, 0877ms total)
T1E1F8 121:873 JLINK_IsHalted()  returns FALSE (0000ms, 0877ms total)
T1E1F8 121:875 JLINK_IsHalted()  returns TRUE (0002ms, 0879ms total)
T1E1F8 121:877 JLINK_ReadReg(R15 (PC))  returns 0x1FFFF000 (0000ms, 0877ms total)
T1E1F8 121:877 JLINK_ClrBPEx(BPHandle = 0x00000005)  returns 0x00 (0000ms, 0877ms total)
T1E1F8 121:877 JLINK_ReadReg(R0)  returns 0x00000000 (0000ms, 0877ms total)
T1E1F8 121:878 JLINK_WriteReg(R0, 0x00000400)  returns 0x00 (0000ms, 0877ms total)
T1E1F8 121:878 JLINK_WriteReg(R1, 0x00000200)  returns 0x00 (0000ms, 0877ms total)
T1E1F8 121:878 JLINK_WriteReg(R2, 0x000000FF)  returns 0x00 (0000ms, 0877ms total)
T1E1F8 121:878 JLINK_WriteReg(R3, 0x00000000)  returns 0x00 (0000ms, 0877ms total)
T1E1F8 121:878 JLINK_WriteReg(R4, 0x00000000)  returns 0x00 (0000ms, 0877ms total)
T1E1F8 121:878 JLINK_WriteReg(R5, 0x00000000)  returns 0x00 (0000ms, 0877ms total)
T1E1F8 121:878 JLINK_WriteReg(R6, 0x00000000)  returns 0x00 (0000ms, 0877ms total)
T1E1F8 121:878 JLINK_WriteReg(R7, 0x00000000)  returns 0x00 (0000ms, 0877ms total)
T1E1F8 121:878 JLINK_WriteReg(R8, 0x00000000)  returns 0x00 (0000ms, 0877ms total)
T1E1F8 121:878 JLINK_WriteReg(R9, 0x1FFFF1A8)  returns 0x00 (0000ms, 0877ms total)
T1E1F8 121:878 JLINK_WriteReg(R10, 0x00000000)  returns 0x00 (0001ms, 0878ms total)
T1E1F8 121:879 JLINK_WriteReg(R11, 0x00000000)  returns 0x00 (0000ms, 0878ms total)
T1E1F8 121:879 JLINK_WriteReg(R12, 0x00000000)  returns 0x00 (0000ms, 0878ms total)
T1E1F8 121:879 JLINK_WriteReg(R13 (SP), 0x20000000)  returns 0x00 (0000ms, 0878ms total)
T1E1F8 121:879 JLINK_WriteReg(R14, 0x1FFFF001)  returns 0x00 (0000ms, 0878ms total)
T1E1F8 121:879 JLINK_WriteReg(R15 (PC), 0x1FFFF020)  returns 0x00 (0000ms, 0878ms total)
T1E1F8 121:879 JLINK_WriteReg(XPSR, 0x01000000)  returns 0x00 (0000ms, 0878ms total)
T1E1F8 121:879 JLINK_WriteReg(MSP, 0x20000000)  returns 0x00 (0000ms, 0878ms total)
T1E1F8 121:879 JLINK_WriteReg(PSP, 0x20000000)  returns 0x00 (0000ms, 0878ms total)
T1E1F8 121:879 JLINK_WriteReg(CFBP, 0x00000000)  returns 0x00 (0000ms, 0878ms total)
T1E1F8 121:879 JLINK_SetBPEx(Addr = 0x1FFFF000, Type = 0xFFFFFFF2)  returns 0x00000006 (0000ms, 0878ms total)
T1E1F8 121:879 JLINK_Go() -- CPU_WriteMem(4 bytes @ 0xE0002000) -- CPU_ReadMem(4 bytes @ 0xE0001000) -- CPU_WriteMem(4 bytes @ 0xE0001000) (0004ms, 0882ms total)
T1E1F8 121:883 JLINK_IsHalted()  returns TRUE (0002ms, 0884ms total)
T1E1F8 121:885 JLINK_ReadReg(R15 (PC))  returns 0x1FFFF000 (0001ms, 0883ms total)
T1E1F8 121:886 JLINK_ClrBPEx(BPHandle = 0x00000006)  returns 0x00 (0000ms, 0883ms total)
T1E1F8 121:886 JLINK_ReadReg(R0)  returns 0x00000001 (0000ms, 0883ms total)
T1E1F8 121:886 JLINK_WriteReg(R0, 0x00000400)  returns 0x00 (0000ms, 0883ms total)
T1E1F8 121:886 JLINK_WriteReg(R1, 0x00000200)  returns 0x00 (0000ms, 0883ms total)
T1E1F8 121:886 JLINK_WriteReg(R2, 0x000000FF)  returns 0x00 (0000ms, 0883ms total)
T1E1F8 121:886 JLINK_WriteReg(R3, 0x00000000)  returns 0x00 (0000ms, 0883ms total)
T1E1F8 121:886 JLINK_WriteReg(R4, 0x00000000)  returns 0x00 (0000ms, 0883ms total)
T1E1F8 121:886 JLINK_WriteReg(R5, 0x00000000)  returns 0x00 (0000ms, 0883ms total)
T1E1F8 121:886 JLINK_WriteReg(R6, 0x00000000)  returns 0x00 (0000ms, 0883ms total)
T1E1F8 121:886 JLINK_WriteReg(R7, 0x00000000)  returns 0x00 (0000ms, 0883ms total)
T1E1F8 121:886 JLINK_WriteReg(R8, 0x00000000)  returns 0x00 (0000ms, 0883ms total)
T1E1F8 121:886 JLINK_WriteReg(R9, 0x1FFFF1A8)  returns 0x00 (0000ms, 0883ms total)
T1E1F8 121:886 JLINK_WriteReg(R10, 0x00000000)  returns 0x00 (0000ms, 0883ms total)
T1E1F8 121:886 JLINK_WriteReg(R11, 0x00000000)  returns 0x00 (0000ms, 0883ms total)
T1E1F8 121:886 JLINK_WriteReg(R12, 0x00000000)  returns 0x00 (0000ms, 0883ms total)
T1E1F8 121:886 JLINK_WriteReg(R13 (SP), 0x20000000)  returns 0x00 (0000ms, 0883ms total)
T1E1F8 121:886 JLINK_WriteReg(R14, 0x1FFFF001)  returns 0x00 (0000ms, 0883ms total)
T1E1F8 121:886 JLINK_WriteReg(R15 (PC), 0x1FFFF0DA)  returns 0x00 (0000ms, 0883ms total)
T1E1F8 121:886 JLINK_WriteReg(XPSR, 0x01000000)  returns 0x00 (0000ms, 0883ms total)
T1E1F8 121:887 JLINK_WriteReg(MSP, 0x20000000)  returns 0x00 (0000ms, 0884ms total)
T1E1F8 121:887 JLINK_WriteReg(PSP, 0x20000000)  returns 0x00 (0000ms, 0884ms total)
T1E1F8 121:887 JLINK_WriteReg(CFBP, 0x00000000)  returns 0x00 (0000ms, 0884ms total)
T1E1F8 121:887 JLINK_SetBPEx(Addr = 0x1FFFF000, Type = 0xFFFFFFF2)  returns 0x00000007 (0000ms, 0884ms total)
T1E1F8 121:887 JLINK_Go() -- CPU_WriteMem(4 bytes @ 0xE0002000) -- CPU_ReadMem(4 bytes @ 0xE0001000) -- CPU_WriteMem(4 bytes @ 0xE0001000) (0004ms, 0888ms total)
T1E1F8 121:891 JLINK_IsHalted()  returns FALSE (0000ms, 0888ms total)
T1E1F8 121:895 JLINK_IsHalted()  returns FALSE (0000ms, 0888ms total)
T1E1F8 121:897 JLINK_IsHalted()  returns FALSE (0000ms, 0888ms total)
T1E1F8 121:899 JLINK_IsHalted()  returns FALSE (0000ms, 0888ms total)
T1E1F8 121:901 JLINK_IsHalted()  returns FALSE (0000ms, 0888ms total)
T1E1F8 121:903 JLINK_IsHalted()  returns FALSE (0000ms, 0888ms total)
T1E1F8 121:905 JLINK_IsHalted()  returns FALSE (0000ms, 0888ms total)
T1E1F8 121:907 JLINK_IsHalted()  returns FALSE (0000ms, 0888ms total)
T1E1F8 121:909 JLINK_IsHalted()  returns FALSE (0000ms, 0888ms total)
T1E1F8 121:915 JLINK_IsHalted()  returns FALSE (0000ms, 0888ms total)
T1E1F8 121:917 JLINK_IsHalted()  returns FALSE (0000ms, 0888ms total)
T1E1F8 121:919 JLINK_IsHalted()  returns FALSE (0000ms, 0888ms total)
T1E1F8 121:921 JLINK_IsHalted()  returns TRUE (0002ms, 0890ms total)
T1E1F8 121:923 JLINK_ReadReg(R15 (PC))  returns 0x1FFFF000 (0000ms, 0888ms total)
T1E1F8 121:923 JLINK_ClrBPEx(BPHandle = 0x00000007)  returns 0x00 (0000ms, 0888ms total)
T1E1F8 121:923 JLINK_ReadReg(R0)  returns 0x00000000 (0000ms, 0888ms total)
T1E1F8 121:924 JLINK_WriteReg(R0, 0x00000600)  returns 0x00 (0000ms, 0888ms total)
T1E1F8 121:924 JLINK_WriteReg(R1, 0x00000200)  returns 0x00 (0000ms, 0888ms total)
T1E1F8 121:924 JLINK_WriteReg(R2, 0x000000FF)  returns 0x00 (0000ms, 0888ms total)
T1E1F8 121:924 JLINK_WriteReg(R3, 0x00000000)  returns 0x00 (0000ms, 0888ms total)
T1E1F8 121:924 JLINK_WriteReg(R4, 0x00000000)  returns 0x00 (0000ms, 0888ms total)
T1E1F8 121:924 JLINK_WriteReg(R5, 0x00000000)  returns 0x00 (0000ms, 0888ms total)
T1E1F8 121:925 JLINK_WriteReg(R6, 0x00000000)  returns 0x00 (0000ms, 0889ms total)
T1E1F8 121:925 JLINK_WriteReg(R7, 0x00000000)  returns 0x00 (0000ms, 0889ms total)
T1E1F8 121:925 JLINK_WriteReg(R8, 0x00000000)  returns 0x00 (0000ms, 0889ms total)
T1E1F8 121:925 JLINK_WriteReg(R9, 0x1FFFF1A8)  returns 0x00 (0000ms, 0889ms total)
T1E1F8 121:925 JLINK_WriteReg(R10, 0x00000000)  returns 0x00 (0000ms, 0889ms total)
T1E1F8 121:925 JLINK_WriteReg(R11, 0x00000000)  returns 0x00 (0000ms, 0889ms total)
T1E1F8 121:925 JLINK_WriteReg(R12, 0x00000000)  returns 0x00 (0000ms, 0889ms total)
T1E1F8 121:925 JLINK_WriteReg(R13 (SP), 0x20000000)  returns 0x00 (0000ms, 0889ms total)
T1E1F8 121:925 JLINK_WriteReg(R14, 0x1FFFF001)  returns 0x00 (0000ms, 0889ms total)
T1E1F8 121:925 JLINK_WriteReg(R15 (PC), 0x1FFFF020)  returns 0x00 (0000ms, 0889ms total)
T1E1F8 121:925 JLINK_WriteReg(XPSR, 0x01000000)  returns 0x00 (0000ms, 0889ms total)
T1E1F8 121:925 JLINK_WriteReg(MSP, 0x20000000)  returns 0x00 (0000ms, 0889ms total)
T1E1F8 121:925 JLINK_WriteReg(PSP, 0x20000000)  returns 0x00 (0000ms, 0889ms total)
T1E1F8 121:925 JLINK_WriteReg(CFBP, 0x00000000)  returns 0x00 (0000ms, 0889ms total)
T1E1F8 121:925 JLINK_SetBPEx(Addr = 0x1FFFF000, Type = 0xFFFFFFF2)  returns 0x00000008 (0000ms, 0889ms total)
T1E1F8 121:925 JLINK_Go() -- CPU_WriteMem(4 bytes @ 0xE0002000) -- CPU_ReadMem(4 bytes @ 0xE0001000) -- CPU_WriteMem(4 bytes @ 0xE0001000) (0004ms, 0893ms total)
T1E1F8 121:929 JLINK_IsHalted()  returns TRUE (0002ms, 0895ms total)
T1E1F8 121:931 JLINK_ReadReg(R15 (PC))  returns 0x1FFFF000 (0000ms, 0893ms total)
T1E1F8 121:931 JLINK_ClrBPEx(BPHandle = 0x00000008)  returns 0x00 (0000ms, 0893ms total)
T1E1F8 121:931 JLINK_ReadReg(R0)  returns 0x00000001 (0000ms, 0893ms total)
T1E1F8 121:931 JLINK_WriteReg(R0, 0x00000600)  returns 0x00 (0000ms, 0893ms total)
T1E1F8 121:931 JLINK_WriteReg(R1, 0x00000200)  returns 0x00 (0000ms, 0893ms total)
T1E1F8 121:931 JLINK_WriteReg(R2, 0x000000FF)  returns 0x00 (0000ms, 0893ms total)
T1E1F8 121:931 JLINK_WriteReg(R3, 0x00000000)  returns 0x00 (0000ms, 0893ms total)
T1E1F8 121:931 JLINK_WriteReg(R4, 0x00000000)  returns 0x00 (0000ms, 0893ms total)
T1E1F8 121:931 JLINK_WriteReg(R5, 0x00000000)  returns 0x00 (0000ms, 0893ms total)
T1E1F8 121:931 JLINK_WriteReg(R6, 0x00000000)  returns 0x00 (0000ms, 0893ms total)
T1E1F8 121:931 JLINK_WriteReg(R7, 0x00000000)  returns 0x00 (0001ms, 0894ms total)
T1E1F8 121:932 JLINK_WriteReg(R8, 0x00000000)  returns 0x00 (0000ms, 0894ms total)
T1E1F8 121:932 JLINK_WriteReg(R9, 0x1FFFF1A8)  returns 0x00 (0000ms, 0894ms total)
T1E1F8 121:932 JLINK_WriteReg(R10, 0x00000000)  returns 0x00 (0000ms, 0894ms total)
T1E1F8 121:932 JLINK_WriteReg(R11, 0x00000000)  returns 0x00 (0000ms, 0894ms total)
T1E1F8 121:932 JLINK_WriteReg(R12, 0x00000000)  returns 0x00 (0000ms, 0894ms total)
T1E1F8 121:932 JLINK_WriteReg(R13 (SP), 0x20000000)  returns 0x00 (0000ms, 0894ms total)
T1E1F8 121:932 JLINK_WriteReg(R14, 0x1FFFF001)  returns 0x00 (0000ms, 0894ms total)
T1E1F8 121:932 JLINK_WriteReg(R15 (PC), 0x1FFFF0DA)  returns 0x00 (0000ms, 0894ms total)
T1E1F8 121:932 JLINK_WriteReg(XPSR, 0x01000000)  returns 0x00 (0000ms, 0894ms total)
T1E1F8 121:932 JLINK_WriteReg(MSP, 0x20000000)  returns 0x00 (0000ms, 0894ms total)
T1E1F8 121:932 JLINK_WriteReg(PSP, 0x20000000)  returns 0x00 (0000ms, 0894ms total)
T1E1F8 121:932 JLINK_WriteReg(CFBP, 0x00000000)  returns 0x00 (0000ms, 0894ms total)
T1E1F8 121:932 JLINK_SetBPEx(Addr = 0x1FFFF000, Type = 0xFFFFFFF2)  returns 0x00000009 (0000ms, 0894ms total)
T1E1F8 121:932 JLINK_Go() -- CPU_WriteMem(4 bytes @ 0xE0002000) -- CPU_ReadMem(4 bytes @ 0xE0001000) -- CPU_WriteMem(4 bytes @ 0xE0001000) (0004ms, 0898ms total)
T1E1F8 121:936 JLINK_IsHalted()  returns FALSE (0000ms, 0898ms total)
T1E1F8 121:938 JLINK_IsHalted()  returns FALSE (0000ms, 0898ms total)
T1E1F8 121:940 JLINK_IsHalted()  returns FALSE (0000ms, 0898ms total)
T1E1F8 121:944 JLINK_IsHalted()  returns FALSE (0000ms, 0898ms total)
T1E1F8 121:946 JLINK_IsHalted()  returns FALSE (0000ms, 0898ms total)
T1E1F8 121:948 JLINK_IsHalted()  returns FALSE (0000ms, 0898ms total)
T1E1F8 121:950 JLINK_IsHalted()  returns FALSE (0000ms, 0898ms total)
T1E1F8 121:952 JLINK_IsHalted()  returns FALSE (0000ms, 0898ms total)
T1E1F8 121:954 JLINK_IsHalted()  returns FALSE (0000ms, 0898ms total)
T1E1F8 121:956 JLINK_IsHalted()  returns FALSE (0000ms, 0898ms total)
T1E1F8 121:958 JLINK_IsHalted()  returns FALSE (0000ms, 0898ms total)
T1E1F8 121:960 JLINK_IsHalted()  returns FALSE (0000ms, 0898ms total)
T1E1F8 121:962 JLINK_IsHalted()  returns FALSE (0000ms, 0898ms total)
T1E1F8 121:964 JLINK_IsHalted()  returns FALSE (0000ms, 0898ms total)
T1E1F8 121:966 JLINK_IsHalted()  returns TRUE (0002ms, 0900ms total)
T1E1F8 121:968 JLINK_ReadReg(R15 (PC))  returns 0x1FFFF000 (0000ms, 0898ms total)
T1E1F8 121:968 JLINK_ClrBPEx(BPHandle = 0x00000009)  returns 0x00 (0000ms, 0898ms total)
T1E1F8 121:968 JLINK_ReadReg(R0)  returns 0x00000000 (0000ms, 0898ms total)
T1E1F8 121:969 JLINK_WriteReg(R0, 0x00000800)  returns 0x00 (0000ms, 0898ms total)
T1E1F8 121:969 JLINK_WriteReg(R1, 0x00000200)  returns 0x00 (0000ms, 0898ms total)
T1E1F8 121:969 JLINK_WriteReg(R2, 0x000000FF)  returns 0x00 (0000ms, 0898ms total)
T1E1F8 121:969 JLINK_WriteReg(R3, 0x00000000)  returns 0x00 (0000ms, 0898ms total)
T1E1F8 121:969 JLINK_WriteReg(R4, 0x00000000)  returns 0x00 (0000ms, 0898ms total)
T1E1F8 121:969 JLINK_WriteReg(R5, 0x00000000)  returns 0x00 (0000ms, 0898ms total)
T1E1F8 121:969 JLINK_WriteReg(R6, 0x00000000)  returns 0x00 (0000ms, 0898ms total)
T1E1F8 121:969 JLINK_WriteReg(R7, 0x00000000)  returns 0x00 (0000ms, 0898ms total)
T1E1F8 121:969 JLINK_WriteReg(R8, 0x00000000)  returns 0x00 (0000ms, 0898ms total)
T1E1F8 121:969 JLINK_WriteReg(R9, 0x1FFFF1A8)  returns 0x00 (0001ms, 0899ms total)
T1E1F8 121:970 JLINK_WriteReg(R10, 0x00000000)  returns 0x00 (0000ms, 0899ms total)
T1E1F8 121:970 JLINK_WriteReg(R11, 0x00000000)  returns 0x00 (0000ms, 0899ms total)
T1E1F8 121:970 JLINK_WriteReg(R12, 0x00000000)  returns 0x00 (0000ms, 0899ms total)
T1E1F8 121:970 JLINK_WriteReg(R13 (SP), 0x20000000)  returns 0x00 (0000ms, 0899ms total)
T1E1F8 121:970 JLINK_WriteReg(R14, 0x1FFFF001)  returns 0x00 (0000ms, 0899ms total)
T1E1F8 121:970 JLINK_WriteReg(R15 (PC), 0x1FFFF020)  returns 0x00 (0000ms, 0899ms total)
T1E1F8 121:970 JLINK_WriteReg(XPSR, 0x01000000)  returns 0x00 (0000ms, 0899ms total)
T1E1F8 121:970 JLINK_WriteReg(MSP, 0x20000000)  returns 0x00 (0000ms, 0899ms total)
T1E1F8 121:970 JLINK_WriteReg(PSP, 0x20000000)  returns 0x00 (0000ms, 0899ms total)
T1E1F8 121:970 JLINK_WriteReg(CFBP, 0x00000000)  returns 0x00 (0000ms, 0899ms total)
T1E1F8 121:970 JLINK_SetBPEx(Addr = 0x1FFFF000, Type = 0xFFFFFFF2)  returns 0x0000000A (0000ms, 0899ms total)
T1E1F8 121:970 JLINK_Go() -- CPU_WriteMem(4 bytes @ 0xE0002000) -- CPU_ReadMem(4 bytes @ 0xE0001000) -- CPU_WriteMem(4 bytes @ 0xE0001000) (0004ms, 0903ms total)
T1E1F8 121:974 JLINK_IsHalted()  returns TRUE (0002ms, 0905ms total)
T1E1F8 121:976 JLINK_ReadReg(R15 (PC))  returns 0x1FFFF000 (0000ms, 0903ms total)
T1E1F8 121:976 JLINK_ClrBPEx(BPHandle = 0x0000000A)  returns 0x00 (0000ms, 0903ms total)
T1E1F8 121:976 JLINK_ReadReg(R0)  returns 0x00000001 (0000ms, 0903ms total)
T1E1F8 121:976 JLINK_WriteReg(R0, 0x00000800)  returns 0x00 (0000ms, 0903ms total)
T1E1F8 121:976 JLINK_WriteReg(R1, 0x00000200)  returns 0x00 (0000ms, 0903ms total)
T1E1F8 121:976 JLINK_WriteReg(R2, 0x000000FF)  returns 0x00 (0000ms, 0903ms total)
T1E1F8 121:976 JLINK_WriteReg(R3, 0x00000000)  returns 0x00 (0000ms, 0903ms total)
T1E1F8 121:976 JLINK_WriteReg(R4, 0x00000000)  returns 0x00 (0000ms, 0903ms total)
T1E1F8 121:976 JLINK_WriteReg(R5, 0x00000000)  returns 0x00 (0000ms, 0903ms total)
T1E1F8 121:976 JLINK_WriteReg(R6, 0x00000000)  returns 0x00 (0000ms, 0903ms total)
T1E1F8 121:976 JLINK_WriteReg(R7, 0x00000000)  returns 0x00 (0000ms, 0903ms total)
T1E1F8 121:976 JLINK_WriteReg(R8, 0x00000000)  returns 0x00 (0000ms, 0903ms total)
T1E1F8 121:976 JLINK_WriteReg(R9, 0x1FFFF1A8)  returns 0x00 (0000ms, 0903ms total)
T1E1F8 121:976 JLINK_WriteReg(R10, 0x00000000)  returns 0x00 (0000ms, 0903ms total)
T1E1F8 121:976 JLINK_WriteReg(R11, 0x00000000)  returns 0x00 (0000ms, 0903ms total)
T1E1F8 121:977 JLINK_WriteReg(R12, 0x00000000)  returns 0x00 (0000ms, 0904ms total)
T1E1F8 121:977 JLINK_WriteReg(R13 (SP), 0x20000000)  returns 0x00 (0000ms, 0904ms total)
T1E1F8 121:977 JLINK_WriteReg(R14, 0x1FFFF001)  returns 0x00 (0000ms, 0904ms total)
T1E1F8 121:977 JLINK_WriteReg(R15 (PC), 0x1FFFF0DA)  returns 0x00 (0000ms, 0904ms total)
T1E1F8 121:977 JLINK_WriteReg(XPSR, 0x01000000)  returns 0x00 (0000ms, 0904ms total)
T1E1F8 121:977 JLINK_WriteReg(MSP, 0x20000000)  returns 0x00 (0000ms, 0904ms total)
T1E1F8 121:977 JLINK_WriteReg(PSP, 0x20000000)  returns 0x00 (0000ms, 0904ms total)
T1E1F8 121:977 JLINK_WriteReg(CFBP, 0x00000000)  returns 0x00 (0000ms, 0904ms total)
T1E1F8 121:977 JLINK_SetBPEx(Addr = 0x1FFFF000, Type = 0xFFFFFFF2)  returns 0x0000000B (0000ms, 0904ms total)
T1E1F8 121:977 JLINK_Go() -- CPU_WriteMem(4 bytes @ 0xE0002000) -- CPU_ReadMem(4 bytes @ 0xE0001000) -- CPU_WriteMem(4 bytes @ 0xE0001000) (0004ms, 0908ms total)
T1E1F8 121:981 JLINK_IsHalted()  returns FALSE (0000ms, 0908ms total)
T1E1F8 121:986 JLINK_IsHalted()  returns FALSE (0000ms, 0908ms total)
T1E1F8 121:988 JLINK_IsHalted()  returns FALSE (0000ms, 0908ms total)
T1E1F8 121:990 JLINK_IsHalted()  returns FALSE (0000ms, 0908ms total)
T1E1F8 121:992 JLINK_IsHalted()  returns FALSE (0000ms, 0908ms total)
T1E1F8 121:994 JLINK_IsHalted()  returns FALSE (0000ms, 0908ms total)
T1E1F8 121:996 JLINK_IsHalted()  returns FALSE (0000ms, 0908ms total)
T1E1F8 121:998 JLINK_IsHalted()  returns FALSE (0000ms, 0908ms total)
T1E1F8 122:000 JLINK_IsHalted()  returns FALSE (0000ms, 0908ms total)
T1E1F8 122:002 JLINK_IsHalted()  returns FALSE (0000ms, 0908ms total)
T1E1F8 122:004 JLINK_IsHalted()  returns FALSE (0000ms, 0908ms total)
T1E1F8 122:006 JLINK_IsHalted()  returns FALSE (0000ms, 0908ms total)
T1E1F8 122:008 JLINK_IsHalted()  returns FALSE (0000ms, 0908ms total)
T1E1F8 122:010 JLINK_IsHalted()  returns TRUE (0002ms, 0910ms total)
T1E1F8 122:012 JLINK_ReadReg(R15 (PC))  returns 0x1FFFF000 (0000ms, 0908ms total)
T1E1F8 122:012 JLINK_ClrBPEx(BPHandle = 0x0000000B)  returns 0x00 (0000ms, 0908ms total)
T1E1F8 122:012 JLINK_ReadReg(R0)  returns 0x00000000 (0000ms, 0908ms total)
T1E1F8 122:013 JLINK_WriteReg(R0, 0x00000A00)  returns 0x00 (0000ms, 0908ms total)
T1E1F8 122:013 JLINK_WriteReg(R1, 0x00000200)  returns 0x00 (0000ms, 0908ms total)
T1E1F8 122:013 JLINK_WriteReg(R2, 0x000000FF)  returns 0x00 (0000ms, 0908ms total)
T1E1F8 122:013 JLINK_WriteReg(R3, 0x00000000)  returns 0x00 (0000ms, 0908ms total)
T1E1F8 122:013 JLINK_WriteReg(R4, 0x00000000)  returns 0x00 (0000ms, 0908ms total)
T1E1F8 122:014 JLINK_WriteReg(R5, 0x00000000)  returns 0x00 (0000ms, 0909ms total)
T1E1F8 122:014 JLINK_WriteReg(R6, 0x00000000)  returns 0x00 (0000ms, 0909ms total)
T1E1F8 122:014 JLINK_WriteReg(R7, 0x00000000)  returns 0x00 (0000ms, 0909ms total)
T1E1F8 122:014 JLINK_WriteReg(R8, 0x00000000)  returns 0x00 (0000ms, 0909ms total)
T1E1F8 122:014 JLINK_WriteReg(R9, 0x1FFFF1A8)  returns 0x00 (0000ms, 0909ms total)
T1E1F8 122:014 JLINK_WriteReg(R10, 0x00000000)  returns 0x00 (0000ms, 0909ms total)
T1E1F8 122:014 JLINK_WriteReg(R11, 0x00000000)  returns 0x00 (0000ms, 0909ms total)
T1E1F8 122:014 JLINK_WriteReg(R12, 0x00000000)  returns 0x00 (0000ms, 0909ms total)
T1E1F8 122:014 JLINK_WriteReg(R13 (SP), 0x20000000)  returns 0x00 (0000ms, 0909ms total)
T1E1F8 122:014 JLINK_WriteReg(R14, 0x1FFFF001)  returns 0x00 (0000ms, 0909ms total)
T1E1F8 122:014 JLINK_WriteReg(R15 (PC), 0x1FFFF020)  returns 0x00 (0000ms, 0909ms total)
T1E1F8 122:014 JLINK_WriteReg(XPSR, 0x01000000)  returns 0x00 (0000ms, 0909ms total)
T1E1F8 122:014 JLINK_WriteReg(MSP, 0x20000000)  returns 0x00 (0000ms, 0909ms total)
T1E1F8 122:014 JLINK_WriteReg(PSP, 0x20000000)  returns 0x00 (0000ms, 0909ms total)
T1E1F8 122:014 JLINK_WriteReg(CFBP, 0x00000000)  returns 0x00 (0000ms, 0909ms total)
T1E1F8 122:014 JLINK_SetBPEx(Addr = 0x1FFFF000, Type = 0xFFFFFFF2)  returns 0x0000000C (0000ms, 0909ms total)
T1E1F8 122:014 JLINK_Go() -- CPU_WriteMem(4 bytes @ 0xE0002000) -- CPU_ReadMem(4 bytes @ 0xE0001000) -- CPU_WriteMem(4 bytes @ 0xE0001000) (0004ms, 0913ms total)
T1E1F8 122:018 JLINK_IsHalted()  returns TRUE (0002ms, 0915ms total)
T1E1F8 122:020 JLINK_ReadReg(R15 (PC))  returns 0x1FFFF000 (0000ms, 0913ms total)
T1E1F8 122:020 JLINK_ClrBPEx(BPHandle = 0x0000000C)  returns 0x00 (0000ms, 0913ms total)
T1E1F8 122:020 JLINK_ReadReg(R0)  returns 0x00000001 (0000ms, 0913ms total)
T1E1F8 122:020 JLINK_WriteReg(R0, 0x00000A00)  returns 0x00 (0000ms, 0913ms total)
T1E1F8 122:020 JLINK_WriteReg(R1, 0x00000200)  returns 0x00 (0000ms, 0913ms total)
T1E1F8 122:020 JLINK_WriteReg(R2, 0x000000FF)  returns 0x00 (0000ms, 0913ms total)
T1E1F8 122:020 JLINK_WriteReg(R3, 0x00000000)  returns 0x00 (0000ms, 0913ms total)
T1E1F8 122:020 JLINK_WriteReg(R4, 0x00000000)  returns 0x00 (0000ms, 0913ms total)
T1E1F8 122:020 JLINK_WriteReg(R5, 0x00000000)  returns 0x00 (0000ms, 0913ms total)
T1E1F8 122:020 JLINK_WriteReg(R6, 0x00000000)  returns 0x00 (0001ms, 0914ms total)
T1E1F8 122:021 JLINK_WriteReg(R7, 0x00000000)  returns 0x00 (0000ms, 0914ms total)
T1E1F8 122:021 JLINK_WriteReg(R8, 0x00000000)  returns 0x00 (0000ms, 0914ms total)
T1E1F8 122:021 JLINK_WriteReg(R9, 0x1FFFF1A8)  returns 0x00 (0000ms, 0914ms total)
T1E1F8 122:021 JLINK_WriteReg(R10, 0x00000000)  returns 0x00 (0000ms, 0914ms total)
T1E1F8 122:021 JLINK_WriteReg(R11, 0x00000000)  returns 0x00 (0000ms, 0914ms total)
T1E1F8 122:021 JLINK_WriteReg(R12, 0x00000000)  returns 0x00 (0000ms, 0914ms total)
T1E1F8 122:021 JLINK_WriteReg(R13 (SP), 0x20000000)  returns 0x00 (0000ms, 0914ms total)
T1E1F8 122:021 JLINK_WriteReg(R14, 0x1FFFF001)  returns 0x00 (0000ms, 0914ms total)
T1E1F8 122:021 JLINK_WriteReg(R15 (PC), 0x1FFFF0DA)  returns 0x00 (0000ms, 0914ms total)
T1E1F8 122:021 JLINK_WriteReg(XPSR, 0x01000000)  returns 0x00 (0000ms, 0914ms total)
T1E1F8 122:021 JLINK_WriteReg(MSP, 0x20000000)  returns 0x00 (0000ms, 0914ms total)
T1E1F8 122:021 JLINK_WriteReg(PSP, 0x20000000)  returns 0x00 (0000ms, 0914ms total)
T1E1F8 122:021 JLINK_WriteReg(CFBP, 0x00000000)  returns 0x00 (0000ms, 0914ms total)
T1E1F8 122:021 JLINK_SetBPEx(Addr = 0x1FFFF000, Type = 0xFFFFFFF2)  returns 0x0000000D (0000ms, 0914ms total)
T1E1F8 122:021 JLINK_Go() -- CPU_WriteMem(4 bytes @ 0xE0002000) -- CPU_ReadMem(4 bytes @ 0xE0001000) -- CPU_WriteMem(4 bytes @ 0xE0001000) (0004ms, 0918ms total)
T1E1F8 122:025 JLINK_IsHalted()  returns FALSE (0000ms, 0918ms total)
T1E1F8 122:027 JLINK_IsHalted()  returns FALSE (0000ms, 0918ms total)
T1E1F8 122:029 JLINK_IsHalted()  returns FALSE (0000ms, 0918ms total)
T1E1F8 122:031 JLINK_IsHalted()  returns FALSE (0000ms, 0918ms total)
T1E1F8 122:033 JLINK_IsHalted()  returns FALSE (0000ms, 0918ms total)
T1E1F8 122:041 JLINK_IsHalted()  returns FALSE (0000ms, 0918ms total)
T1E1F8 122:043 JLINK_IsHalted()  returns FALSE (0000ms, 0918ms total)
T1E1F8 122:045 JLINK_IsHalted()  returns FALSE (0000ms, 0918ms total)
T1E1F8 122:047 JLINK_IsHalted()  returns FALSE (0000ms, 0918ms total)
T1E1F8 122:049 JLINK_IsHalted()  returns FALSE (0000ms, 0918ms total)
T1E1F8 122:051 JLINK_IsHalted()  returns FALSE (0000ms, 0918ms total)
T1E1F8 122:053 JLINK_IsHalted()  returns FALSE (0000ms, 0918ms total)
T1E1F8 122:055 JLINK_IsHalted()  returns TRUE (0002ms, 0920ms total)
T1E1F8 122:057 JLINK_ReadReg(R15 (PC))  returns 0x1FFFF000 (0000ms, 0918ms total)
T1E1F8 122:057 JLINK_ClrBPEx(BPHandle = 0x0000000D)  returns 0x00 (0000ms, 0918ms total)
T1E1F8 122:057 JLINK_ReadReg(R0)  returns 0x00000000 (0000ms, 0918ms total)
T1E1F8 122:058 JLINK_WriteReg(R0, 0x00000C00)  returns 0x00 (0000ms, 0918ms total)
T1E1F8 122:058 JLINK_WriteReg(R1, 0x00000200)  returns 0x00 (0000ms, 0918ms total)
T1E1F8 122:058 JLINK_WriteReg(R2, 0x000000FF)  returns 0x00 (0000ms, 0918ms total)
T1E1F8 122:058 JLINK_WriteReg(R3, 0x00000000)  returns 0x00 (0000ms, 0918ms total)
T1E1F8 122:058 JLINK_WriteReg(R4, 0x00000000)  returns 0x00 (0000ms, 0918ms total)
T1E1F8 122:058 JLINK_WriteReg(R5, 0x00000000)  returns 0x00 (0000ms, 0918ms total)
T1E1F8 122:058 JLINK_WriteReg(R6, 0x00000000)  returns 0x00 (0000ms, 0918ms total)
T1E1F8 122:058 JLINK_WriteReg(R7, 0x00000000)  returns 0x00 (0000ms, 0918ms total)
T1E1F8 122:058 JLINK_WriteReg(R8, 0x00000000)  returns 0x00 (0000ms, 0918ms total)
T1E1F8 122:059 JLINK_WriteReg(R9, 0x1FFFF1A8)  returns 0x00 (0000ms, 0918ms total)
T1E1F8 122:059 JLINK_WriteReg(R10, 0x00000000)  returns 0x00 (0000ms, 0918ms total)
T1E1F8 122:059 JLINK_WriteReg(R11, 0x00000000)  returns 0x00 (0000ms, 0918ms total)
T1E1F8 122:059 JLINK_WriteReg(R12, 0x00000000)  returns 0x00 (0000ms, 0918ms total)
T1E1F8 122:059 JLINK_WriteReg(R13 (SP), 0x20000000)  returns 0x00 (0000ms, 0918ms total)
T1E1F8 122:059 JLINK_WriteReg(R14, 0x1FFFF001)  returns 0x00 (0000ms, 0918ms total)
T1E1F8 122:059 JLINK_WriteReg(R15 (PC), 0x1FFFF020)  returns 0x00 (0000ms, 0918ms total)
T1E1F8 122:059 JLINK_WriteReg(XPSR, 0x01000000)  returns 0x00 (0000ms, 0918ms total)
T1E1F8 122:059 JLINK_WriteReg(MSP, 0x20000000)  returns 0x00 (0000ms, 0918ms total)
T1E1F8 122:059 JLINK_WriteReg(PSP, 0x20000000)  returns 0x00 (0000ms, 0918ms total)
T1E1F8 122:059 JLINK_WriteReg(CFBP, 0x00000000)  returns 0x00 (0000ms, 0918ms total)
T1E1F8 122:059 JLINK_SetBPEx(Addr = 0x1FFFF000, Type = 0xFFFFFFF2)  returns 0x0000000E (0000ms, 0918ms total)
T1E1F8 122:059 JLINK_Go() -- CPU_WriteMem(4 bytes @ 0xE0002000) -- CPU_ReadMem(4 bytes @ 0xE0001000) -- CPU_WriteMem(4 bytes @ 0xE0001000) (0004ms, 0922ms total)
T1E1F8 122:063 JLINK_IsHalted()  returns TRUE (0002ms, 0924ms total)
T1E1F8 122:065 JLINK_ReadReg(R15 (PC))  returns 0x1FFFF000 (0000ms, 0922ms total)
T1E1F8 122:065 JLINK_ClrBPEx(BPHandle = 0x0000000E)  returns 0x00 (0000ms, 0922ms total)
T1E1F8 122:065 JLINK_ReadReg(R0)  returns 0x00000001 (0000ms, 0922ms total)
T1E1F8 122:065 JLINK_WriteReg(R0, 0x00000C00)  returns 0x00 (0000ms, 0922ms total)
T1E1F8 122:065 JLINK_WriteReg(R1, 0x00000200)  returns 0x00 (0000ms, 0922ms total)
T1E1F8 122:065 JLINK_WriteReg(R2, 0x000000FF)  returns 0x00 (0000ms, 0922ms total)
T1E1F8 122:065 JLINK_WriteReg(R3, 0x00000000)  returns 0x00 (0000ms, 0922ms total)
T1E1F8 122:065 JLINK_WriteReg(R4, 0x00000000)  returns 0x00 (0000ms, 0922ms total)
T1E1F8 122:065 JLINK_WriteReg(R5, 0x00000000)  returns 0x00 (0000ms, 0922ms total)
T1E1F8 122:066 JLINK_WriteReg(R6, 0x00000000)  returns 0x00 (0000ms, 0923ms total)
T1E1F8 122:066 JLINK_WriteReg(R7, 0x00000000)  returns 0x00 (0000ms, 0923ms total)
T1E1F8 122:066 JLINK_WriteReg(R8, 0x00000000)  returns 0x00 (0000ms, 0923ms total)
T1E1F8 122:066 JLINK_WriteReg(R9, 0x1FFFF1A8)  returns 0x00 (0000ms, 0923ms total)
T1E1F8 122:066 JLINK_WriteReg(R10, 0x00000000)  returns 0x00 (0000ms, 0923ms total)
T1E1F8 122:066 JLINK_WriteReg(R11, 0x00000000)  returns 0x00 (0000ms, 0923ms total)
T1E1F8 122:066 JLINK_WriteReg(R12, 0x00000000)  returns 0x00 (0000ms, 0923ms total)
T1E1F8 122:066 JLINK_WriteReg(R13 (SP), 0x20000000)  returns 0x00 (0000ms, 0923ms total)
T1E1F8 122:066 JLINK_WriteReg(R14, 0x1FFFF001)  returns 0x00 (0000ms, 0923ms total)
T1E1F8 122:066 JLINK_WriteReg(R15 (PC), 0x1FFFF0DA)  returns 0x00 (0000ms, 0923ms total)
T1E1F8 122:066 JLINK_WriteReg(XPSR, 0x01000000)  returns 0x00 (0000ms, 0923ms total)
T1E1F8 122:066 JLINK_WriteReg(MSP, 0x20000000)  returns 0x00 (0000ms, 0923ms total)
T1E1F8 122:066 JLINK_WriteReg(PSP, 0x20000000)  returns 0x00 (0000ms, 0923ms total)
T1E1F8 122:066 JLINK_WriteReg(CFBP, 0x00000000)  returns 0x00 (0000ms, 0923ms total)
